T1BD0 000:059.341   SEGGER J-Link V7.94i Log File
T1BD0 000:059.427   DLL Compiled: Feb  7 2024 17:04:01
T1BD0 000:059.430   Logging started @ 2025-04-27 16:13
T1BD0 000:059.433   Process: C:\Keil_v5\UV4\UV4.exe
T1BD0 000:059.436 - 59.436ms
T1BD0 000:059.442 JLINK_SetWarnOutHandler(...)
T1BD0 000:059.445 - 0.003ms
T1BD0 000:059.450 JLINK_OpenEx(...)
T1BD0 000:061.924   Firmware: J-Link EDU Mini V1 compiled Oct  9 2024 10:54:30
T1BD0 000:063.569   Firmware: J-Link EDU Mini V1 compiled Oct  9 2024 10:54:30
T1BD0 000:097.970   Hardware: V1.00
T1BD0 000:097.983   S/N: 801039055
T1BD0 000:097.987   OEM: SEGGER
T1BD0 000:097.991   Feature(s): FlashBP, GDB
T1BD0 000:099.782   Bootloader: 2016 Nov 30
T1BD0 000:100.749   USB speed mode: Full speed (12 MBit/s)
T1BD0 000:101.474   TELNET listener socket opened on port 19021
T1BD0 000:101.574   WEBSRV WEBSRV_Init(): Starting webserver thread(s)
T1BD0 000:101.678   WEBSRV Webserver running on local port 19080
T1BD0 000:101.792   Looking for J-Link GUI Server exe at: C:\Keil_v5\ARM\Segger\JLinkGUIServer.exe
T1BD0 000:101.835   Looking for J-Link GUI Server exe at: C:\Program Files\SEGGER\JLink\JLinkGUIServer.exe
T1BD0 000:101.864   Forking J-Link GUI Server: C:\Program Files\SEGGER\JLink\JLinkGUIServer.exe
T1BD0 000:106.613   J-Link GUI Server info: "J-Link GUI server V7.94i "
T1BD0 000:106.765 - 47.310ms returns "O.K."
T1BD0 000:106.777 JLINK_SetErrorOutHandler(...)
T1BD0 000:106.780 - 0.003ms
T1BD0 000:106.793 JLINK_ExecCommand("ProjectFile = "F:\ZHUOZHUOO--Github\FOC_DRV8323\Software\STM32G431 Cube\FOC_DRV8323\MDK-ARM\JLinkSettings.ini"", ...). 
T1BD0 000:118.769   Ref file found at: C:\Keil_v5\ARM\Segger\JLinkDevices.ref
T1BD0 000:118.835   REF file references invalid XML file: C:\Program Files\SEGGER\JLink\JLinkDevices.xml
T1BD0 000:121.407   Device "ARM7" selected.
T1BD0 000:121.713 - 14.916ms returns 0x00
T1BD0 000:122.972 JLINK_ExecCommand("Device = STM32G431K6Ux", ...). 
T1BD0 000:123.137   Flash bank @ 0x08000000: SFL: Parsing sectorization info from ELF file
T1BD0 000:123.143     FlashDevice.SectorInfo[0]: .SectorSize = 0x00000800, .SectorStartAddr = 0x00000000
T1BD0 000:123.147   FlashBank @0x08000000: Sectorization info from SFL ELF file ignored because sectorization override from DLL / XML file is active.
T1BD0 000:124.457   Device "STM32G431K6" selected.
T1BD0 000:124.697 - 1.714ms returns 0x00
T1BD0 000:124.706 JLINK_ExecCommand("DisableConnectionTimeout", ...). 
T1BD0 000:124.711 - 0.001ms returns 0x01
T1BD0 000:124.715 JLINK_GetHardwareVersion()
T1BD0 000:124.721 - 0.003ms returns 10000
T1BD0 000:124.725 JLINK_GetDLLVersion()
T1BD0 000:124.728 - 0.002ms returns 79409
T1BD0 000:124.732 JLINK_GetOEMString(...)
T1BD0 000:124.737 JLINK_GetFirmwareString(...)
T1BD0 000:124.740 - 0.002ms
T1BD0 000:128.088 JLINK_GetDLLVersion()
T1BD0 000:128.097 - 0.008ms returns 79409
T1BD0 000:128.101 JLINK_GetCompileDateTime()
T1BD0 000:128.104 - 0.003ms
T1BD0 000:129.304 JLINK_GetFirmwareString(...)
T1BD0 000:129.311 - 0.007ms
T1BD0 000:130.403 JLINK_GetHardwareVersion()
T1BD0 000:130.410 - 0.007ms returns 10000
T1BD0 000:131.704 JLINK_GetSN()
T1BD0 000:131.715 - 0.011ms returns 801039055
T1BD0 000:132.959 JLINK_GetOEMString(...)
T1BD0 000:135.126 JLINK_TIF_Select(JLINKARM_TIF_SWD)
T1BD0 000:136.419 - 1.293ms returns 0x00
T1BD0 000:136.427 JLINK_HasError()
T1BD0 000:136.437 JLINK_SetSpeed(5000)
T1BD0 000:136.668 - 0.231ms
T1BD0 000:136.673 JLINK_GetId()
T1BD0 000:138.094   InitTarget() start
T1BD0 000:138.103    J-Link Script File: Executing InitTarget()
T1BD0 000:139.522   SWD selected. Executing JTAG -> SWD switching sequence.
T1BD0 000:143.625   DAP initialized successfully.
T1BD0 000:156.911   InitTarget() end - Took 17.4ms
T1BD0 003:107.879   Found SW-DP with ID 0x2BA01477
T1BD0 003:112.656   DPIDR: 0x2BA01477
T1BD0 003:113.418   CoreSight SoC-400 or earlier
T1BD0 003:114.959   Scanning AP map to find all available APs
T1BD0 003:116.907   AP[1]: Stopped AP scan as end of AP map has been reached
T1BD0 003:117.599   AP[0]: AHB-AP (IDR: 0x24770011)
T1BD0 003:118.304   Iterating through AP map to find AHB-AP to use
T1BD0 003:120.364   AP[0]: Core found
T1BD0 003:120.991   AP[0]: AHB-AP ROM base: 0xE00FF000
T1BD0 003:123.019   CPUID register: 0x410FC241. Implementer code: 0x41 (ARM)
T1BD0 003:123.681   Found Cortex-M4 r0p1, Little endian.
T1BD0 003:124.459   -- Max. mem block: 0x00000358
T1BD0 003:125.095   CPU_ReadMem(4 bytes @ 0xE000EDF0)
T1BD0 003:125.636   CPU_ReadMem(4 bytes @ 0xE0002000)
T1BD0 003:126.788   FPUnit: 6 code (BP) slots and 2 literal slots
T1BD0 003:126.798   CPU_ReadMem(4 bytes @ 0xE000EDFC)
T1BD0 003:127.401   CPU_ReadMem(4 bytes @ 0xE0001000)
T1BD0 003:127.876   CPU_WriteMem(4 bytes @ 0xE0001000)
T1BD0 003:128.416   CPU_ReadMem(4 bytes @ 0xE000ED88)
T1BD0 003:128.898   CPU_WriteMem(4 bytes @ 0xE000ED88)
T1BD0 003:129.416   CPU_ReadMem(4 bytes @ 0xE000ED88)
T1BD0 003:129.870   CPU_WriteMem(4 bytes @ 0xE000ED88)
T1BD0 003:131.411   CoreSight components:
T1BD0 003:132.385   ROMTbl[0] @ E00FF000
T1BD0 003:132.397   CPU_ReadMem(64 bytes @ 0xE00FF000)
T1BD0 003:133.469   CPU_ReadMem(32 bytes @ 0xE000EFE0)
T1BD0 003:134.778   [0][0]: E000E000 CID B105E00D PID 000BB00C SCS-M7
T1BD0 003:134.789   CPU_ReadMem(32 bytes @ 0xE0001FE0)
T1BD0 003:136.200   [0][1]: E0001000 CID B105E00D PID 003BB002 DWT
T1BD0 003:136.212   CPU_ReadMem(32 bytes @ 0xE0002FE0)
T1BD0 003:137.480   [0][2]: E0002000 CID B105E00D PID 002BB003 FPB
T1BD0 003:137.489   CPU_ReadMem(32 bytes @ 0xE0000FE0)
T1BD0 003:138.763   [0][3]: E0000000 CID B105E00D PID 003BB001 ITM
T1BD0 003:138.770   CPU_ReadMem(32 bytes @ 0xE0040FE0)
T1BD0 003:140.384   [0][4]: E0040000 CID B105900D PID 000BB9A1 TPIU
T1BD0 003:140.394   CPU_ReadMem(32 bytes @ 0xE0041FE0)
T1BD0 003:141.629   [0][5]: E0041000 CID B105900D PID 000BB925 ETM
T1BD0 003:142.057 - 3005.383ms returns 0x2BA01477
T1BD0 003:142.066 JLINK_GetDLLVersion()
T1BD0 003:142.070 - 0.002ms returns 79409
T1BD0 003:143.424 JLINK_CORE_GetFound()
T1BD0 003:143.428 - 0.003ms returns 0xE0000FF
T1BD0 003:143.434 JLINK_GetDebugInfo(0x100 = JLINKARM_ROM_TABLE_ADDR_INDEX)
T1BD0 003:143.437   Value=0xE00FF000
T1BD0 003:143.442 - 0.007ms returns 0
T1BD0 003:144.092 JLINK_GetDebugInfo(0x100 = JLINKARM_ROM_TABLE_ADDR_INDEX)
T1BD0 003:144.097   Value=0xE00FF000
T1BD0 003:144.101 - 0.009ms returns 0
T1BD0 003:144.105 JLINK_GetDebugInfo(0x101 = JLINKARM_DEBUG_INFO_ETM_ADDR_INDEX)
T1BD0 003:144.108   Value=0xE0041000
T1BD0 003:144.112 - 0.006ms returns 0
T1BD0 003:144.115 JLINK_GetDebugInfo(0x102 = JLINKARM_DEBUG_INFO_MTB_ADDR_INDEX)
T1BD0 003:144.118   Value=0x00000000
T1BD0 003:144.122 - 0.006ms returns 0
T1BD0 003:144.126 JLINK_GetDebugInfo(0x103 = JLINKARM_DEBUG_INFO_TPIU_ADDR_INDEX)
T1BD0 003:144.128   Value=0xE0040000
T1BD0 003:144.132 - 0.006ms returns 0
T1BD0 003:144.136 JLINK_GetDebugInfo(0x104 = JLINKARM_DEBUG_INFO_ITM_ADDR_INDEX)
T1BD0 003:144.139   Value=0xE0000000
T1BD0 003:144.143 - 0.006ms returns 0
T1BD0 003:144.146 JLINK_GetDebugInfo(0x105 = JLINKARM_DEBUG_INFO_DWT_ADDR_INDEX)
T1BD0 003:144.149   Value=0xE0001000
T1BD0 003:144.153 - 0.006ms returns 0
T1BD0 003:144.157 JLINK_GetDebugInfo(0x106 = JLINKARM_DEBUG_INFO_FPB_ADDR_INDEX)
T1BD0 003:144.159   Value=0xE0002000
T1BD0 003:144.163 - 0.006ms returns 0
T1BD0 003:144.167 JLINK_GetDebugInfo(0x107 = JLINKARM_DEBUG_INFO_NVIC_ADDR_INDEX)
T1BD0 003:144.169   Value=0xE000E000
T1BD0 003:144.173 - 0.006ms returns 0
T1BD0 003:144.179 JLINK_GetDebugInfo(0x10C = JLINKARM_DEBUG_INFO_DBG_ADDR_INDEX)
T1BD0 003:144.182   Value=0xE000EDF0
T1BD0 003:144.186 - 0.006ms returns 0
T1BD0 003:144.202 JLINK_ReadMemU32(0xE000EF40, 0x1 Items)
T1BD0 003:144.219   CPU_ReadMem(4 bytes @ 0xE000EF40)
T1BD0 003:144.695   Data:  21 00 11 10
T1BD0 003:144.700 - 0.497ms returns 1 (0x1)
T1BD0 003:144.704 JLINK_ReadMemU32(0xE000EF44, 0x1 Items)
T1BD0 003:144.709   CPU_ReadMem(4 bytes @ 0xE000EF44)
T1BD0 003:145.400   Data:  11 00 00 11
T1BD0 003:145.404 - 0.700ms returns 1 (0x1)
T1BD0 003:145.409 JLINK_ReadMemU32(0xE000ED00, 0x1 Items)
T1BD0 003:145.414   CPU_ReadMem(4 bytes @ 0xE000ED00)
T1BD0 003:145.871   Data:  41 C2 0F 41
T1BD0 003:145.877   Debug reg: CPUID
T1BD0 003:145.881 - 0.471ms returns 1 (0x1)
T1BD0 003:145.886 JLINK_HasError()
T1BD0 003:145.891 JLINK_SetResetType(JLINKARM_CM3_RESET_TYPE_NORMAL)
T1BD0 003:145.894 - 0.003ms returns JLINKARM_CM3_RESET_TYPE_NORMAL
T1BD0 003:145.898 JLINK_Reset()
T1BD0 003:145.906   CPU is running
T1BD0 003:145.911   CPU_WriteMem(4 bytes @ 0xE000EDF0)
T1BD0 003:146.632   CPU is running
T1BD0 003:146.637   CPU_WriteMem(4 bytes @ 0xE000EDFC)
T1BD0 003:147.951   Reset: Halt core after reset via DEMCR.VC_CORERESET.
T1BD0 003:149.555   Reset: Reset device via AIRCR.SYSRESETREQ.
T1BD0 003:149.566   CPU is running
T1BD0 003:149.572   CPU_WriteMem(4 bytes @ 0xE000ED0C)
T1BD0 003:204.501   CPU_ReadMem(4 bytes @ 0xE000EDF0)
T1BD0 003:204.987   CPU_ReadMem(4 bytes @ 0xE000EDF0)
T1BD0 003:208.879   CPU_WriteMem(4 bytes @ 0xE000EDFC)
T1BD0 003:214.874   CPU_ReadMem(4 bytes @ 0xE000EDF0)
T1BD0 003:218.873   CPU_WriteMem(4 bytes @ 0xE0002000)
T1BD0 003:219.416   CPU_ReadMem(4 bytes @ 0xE000EDFC)
T1BD0 003:219.870   CPU_ReadMem(4 bytes @ 0xE0001000)
T1BD0 003:220.420 - 74.522ms
T1BD0 003:220.450 JLINK_Halt()
T1BD0 003:220.454 - 0.003ms returns 0x00
T1BD0 003:220.458 JLINK_IsHalted()
T1BD0 003:220.461 - 0.003ms returns TRUE
T1BD0 003:220.465 JLINK_ReadMemU32(0xE000EDF0, 0x1 Items)
T1BD0 003:220.472   CPU_ReadMem(4 bytes @ 0xE000EDF0)
T1BD0 003:220.919   Data:  03 00 03 00
T1BD0 003:220.923   Debug reg: DHCSR
T1BD0 003:220.927 - 0.462ms returns 1 (0x1)
T1BD0 003:220.932 JLINK_WriteU32_64(0xE000EDF0, 0xA05F0003)
T1BD0 003:220.935   Debug reg: DHCSR
T1BD0 003:221.098   CPU_WriteMem(4 bytes @ 0xE000EDF0)
T1BD0 003:221.646 - 0.714ms returns 0 (0x00000000)
T1BD0 003:221.651 JLINK_WriteU32_64(0xE000EDFC, 0x01000000)
T1BD0 003:221.654   Debug reg: DEMCR
T1BD0 003:221.660   CPU_WriteMem(4 bytes @ 0xE000EDFC)
T1BD0 003:222.132 - 0.480ms returns 0 (0x00000000)
T1BD0 003:224.861 JLINK_GetHWStatus(...)
T1BD0 003:225.415 - 0.554ms returns 0
T1BD0 003:227.245 JLINK_GetNumBPUnits(Type = 0xFFFFFF00)
T1BD0 003:227.251 - 0.006ms returns 0x06
T1BD0 003:227.255 JLINK_GetNumBPUnits(Type = 0xF0)
T1BD0 003:227.258 - 0.002ms returns 0x2000
T1BD0 003:227.262 JLINK_GetNumWPUnits()
T1BD0 003:227.265 - 0.002ms returns 4
T1BD0 003:229.158 JLINK_GetSpeed()
T1BD0 003:229.164 - 0.005ms returns 4000
T1BD0 003:230.356 JLINK_ReadMemU32(0xE000E004, 0x1 Items)
T1BD0 003:230.367   CPU_ReadMem(4 bytes @ 0xE000E004)
T1BD0 003:230.887   Data:  03 00 00 00
T1BD0 003:230.893 - 0.537ms returns 1 (0x1)
T1BD0 003:230.899 JLINK_ReadMemU32(0xE000E004, 0x1 Items)
T1BD0 003:230.905   CPU_ReadMem(4 bytes @ 0xE000E004)
T1BD0 003:231.645   Data:  03 00 00 00
T1BD0 003:231.650 - 0.750ms returns 1 (0x1)
T1BD0 003:231.655 JLINK_WriteMem(0xE0001000, 0x1C Bytes, ...)
T1BD0 003:231.658   Data:  01 00 00 00 00 00 00 00 00 00 00 00 00 00 00 00 ...
T1BD0 003:231.665   CPU_WriteMem(28 bytes @ 0xE0001000)
T1BD0 003:232.416 - 0.761ms returns 0x1C
T1BD0 003:232.421 JLINK_ReadMem(0xE0001000, 0x1C Bytes, ...)
T1BD0 003:232.425   CPU_ReadMem(28 bytes @ 0xE0001000)
T1BD0 003:233.025   Data:  01 00 00 40 00 00 00 00 00 00 00 00 00 00 00 00 ...
T1BD0 003:233.030 - 0.609ms returns 0
T1BD0 003:233.036 JLINK_Halt()
T1BD0 003:233.039 - 0.002ms returns 0x00
T1BD0 003:233.043 JLINK_IsHalted()
T1BD0 003:233.046 - 0.003ms returns TRUE
T1BD0 003:233.868 JLINK_WriteMem(0x20000000, 0x1D4 Bytes, ...)
T1BD0 003:233.873   Data:  00 BE 0A E0 0D 78 2D 06 68 40 08 24 40 00 00 D3 ...
T1BD0 003:234.035   CPU_WriteMem(468 bytes @ 0x20000000)
T1BD0 003:237.091 - 3.222ms returns 0x1D4
T1BD0 003:237.123 JLINK_HasError()
T1BD0 003:237.128 JLINK_WriteReg(R0, 0x08000000)
T1BD0 003:237.134 - 0.005ms returns 0
T1BD0 003:237.137 JLINK_WriteReg(R1, 0x02625A00)
T1BD0 003:237.140 - 0.003ms returns 0
T1BD0 003:237.144 JLINK_WriteReg(R2, 0x00000001)
T1BD0 003:237.147 - 0.003ms returns 0
T1BD0 003:237.151 JLINK_WriteReg(R3, 0x00000000)
T1BD0 003:237.154 - 0.002ms returns 0
T1BD0 003:237.160 JLINK_WriteReg(R4, 0x00000000)
T1BD0 003:237.164 - 0.004ms returns 0
T1BD0 003:237.167 JLINK_WriteReg(R5, 0x00000000)
T1BD0 003:237.170 - 0.002ms returns 0
T1BD0 003:237.174 JLINK_WriteReg(R6, 0x00000000)
T1BD0 003:237.177 - 0.003ms returns 0
T1BD0 003:237.180 JLINK_WriteReg(R7, 0x00000000)
T1BD0 003:237.183 - 0.002ms returns 0
T1BD0 003:237.190 JLINK_WriteReg(R8, 0x00000000)
T1BD0 003:237.193 - 0.006ms returns 0
T1BD0 003:237.197 JLINK_WriteReg(R9, 0x200001C0)
T1BD0 003:237.200 - 0.002ms returns 0
T1BD0 003:237.203 JLINK_WriteReg(R10, 0x00000000)
T1BD0 003:237.206 - 0.003ms returns 0
T1BD0 003:237.210 JLINK_WriteReg(R11, 0x00000000)
T1BD0 003:237.213 - 0.002ms returns 0
T1BD0 003:237.216 JLINK_WriteReg(R12, 0x00000000)
T1BD0 003:237.219 - 0.003ms returns 0
T1BD0 003:237.223 JLINK_WriteReg(R13 (SP), 0x20001000)
T1BD0 003:237.226 - 0.003ms returns 0
T1BD0 003:237.230 JLINK_WriteReg(R14, 0x20000001)
T1BD0 003:237.233 - 0.002ms returns 0
T1BD0 003:237.237 JLINK_WriteReg(R15 (PC), 0x20000020)
T1BD0 003:237.240 - 0.003ms returns 0
T1BD0 003:237.243 JLINK_WriteReg(XPSR, 0x01000000)
T1BD0 003:237.246 - 0.003ms returns 0
T1BD0 003:237.250 JLINK_WriteReg(MSP, 0x20001000)
T1BD0 003:237.253 - 0.003ms returns 0
T1BD0 003:237.256 JLINK_WriteReg(PSP, 0x20001000)
T1BD0 003:237.259 - 0.003ms returns 0
T1BD0 003:237.263 JLINK_WriteReg(CFBP, 0x00000000)
T1BD0 003:237.266 - 0.003ms returns 0
T1BD0 003:237.269 JLINK_SetBPEx(Addr = 0x20000000, Type = 0xFFFFFFF2)
T1BD0 003:237.275   CPU_ReadMem(2 bytes @ 0x20000000)
T1BD0 003:237.713 - 0.444ms returns 0x00000001
T1BD0 003:237.718 JLINK_Go()
T1BD0 003:237.722   CPU_WriteMem(2 bytes @ 0x20000000)
T1BD0 003:238.421   CPU_ReadMem(4 bytes @ 0xE0001000)
T1BD0 003:238.853   CPU_WriteMem(4 bytes @ 0xE0002008)
T1BD0 003:238.858   CPU_WriteMem(4 bytes @ 0xE000200C)
T1BD0 003:238.862   CPU_WriteMem(4 bytes @ 0xE0002010)
T1BD0 003:238.867   CPU_WriteMem(4 bytes @ 0xE0002014)
T1BD0 003:238.871   CPU_WriteMem(4 bytes @ 0xE0002018)
T1BD0 003:238.875   CPU_WriteMem(4 bytes @ 0xE000201C)
T1BD0 003:240.894   CPU_WriteMem(4 bytes @ 0xE0001004)
T1BD0 003:245.631   Memory map 'after startup completion point' is active
T1BD0 003:245.639 - 7.921ms
T1BD0 003:245.646 JLINK_IsHalted()
T1BD0 003:248.884   CPU_ReadMem(2 bytes @ 0x20000000)
T1BD0 003:249.418 - 3.771ms returns TRUE
T1BD0 003:249.425 JLINK_ReadReg(R15 (PC))
T1BD0 003:249.430 - 0.005ms returns 0x20000000
T1BD0 003:249.454 JLINK_ClrBPEx(BPHandle = 0x00000001)
T1BD0 003:249.458 - 0.003ms returns 0x00
T1BD0 003:249.462 JLINK_ReadReg(R0)
T1BD0 003:249.465 - 0.003ms returns 0x00000000
T1BD0 003:249.482 JLINK_HasError()
T1BD0 003:249.487 JLINK_WriteReg(R0, 0x08000000)
T1BD0 003:249.490 - 0.003ms returns 0
T1BD0 003:249.494 JLINK_WriteReg(R1, 0x02625A00)
T1BD0 003:249.497 - 0.003ms returns 0
T1BD0 003:249.500 JLINK_WriteReg(R2, 0x00000001)
T1BD0 003:249.503 - 0.003ms returns 0
T1BD0 003:249.507 JLINK_WriteReg(R3, 0x00000000)
T1BD0 003:249.510 - 0.003ms returns 0
T1BD0 003:249.513 JLINK_WriteReg(R4, 0x00000000)
T1BD0 003:249.516 - 0.003ms returns 0
T1BD0 003:249.520 JLINK_WriteReg(R5, 0x00000000)
T1BD0 003:249.523 - 0.002ms returns 0
T1BD0 003:249.526 JLINK_WriteReg(R6, 0x00000000)
T1BD0 003:249.529 - 0.003ms returns 0
T1BD0 003:249.533 JLINK_WriteReg(R7, 0x00000000)
T1BD0 003:249.536 - 0.003ms returns 0
T1BD0 003:249.540 JLINK_WriteReg(R8, 0x00000000)
T1BD0 003:249.543 - 0.003ms returns 0
T1BD0 003:249.546 JLINK_WriteReg(R9, 0x200001C0)
T1BD0 003:249.549 - 0.003ms returns 0
T1BD0 003:249.553 JLINK_WriteReg(R10, 0x00000000)
T1BD0 003:249.556 - 0.003ms returns 0
T1BD0 003:249.559 JLINK_WriteReg(R11, 0x00000000)
T1BD0 003:249.562 - 0.003ms returns 0
T1BD0 003:249.566 JLINK_WriteReg(R12, 0x00000000)
T1BD0 003:249.569 - 0.003ms returns 0
T1BD0 003:249.573 JLINK_WriteReg(R13 (SP), 0x20001000)
T1BD0 003:249.576 - 0.003ms returns 0
T1BD0 003:249.579 JLINK_WriteReg(R14, 0x20000001)
T1BD0 003:249.582 - 0.003ms returns 0
T1BD0 003:249.586 JLINK_WriteReg(R15 (PC), 0x20000090)
T1BD0 003:249.626 - 0.040ms returns 0
T1BD0 003:249.631 JLINK_WriteReg(XPSR, 0x01000000)
T1BD0 003:249.635 - 0.003ms returns 0
T1BD0 003:249.638 JLINK_WriteReg(MSP, 0x20001000)
T1BD0 003:249.641 - 0.002ms returns 0
T1BD0 003:249.645 JLINK_WriteReg(PSP, 0x20001000)
T1BD0 003:249.648 - 0.003ms returns 0
T1BD0 003:249.651 JLINK_WriteReg(CFBP, 0x00000000)
T1BD0 003:249.654 - 0.003ms returns 0
T1BD0 003:249.658 JLINK_SetBPEx(Addr = 0x20000000, Type = 0xFFFFFFF2)
T1BD0 003:249.662 - 0.004ms returns 0x00000002
T1BD0 003:249.665 JLINK_Go()
T1BD0 003:249.673   CPU_ReadMem(4 bytes @ 0xE0001000)
T1BD0 003:253.396 - 3.730ms
T1BD0 003:253.403 JLINK_IsHalted()
T1BD0 003:253.853 - 0.449ms returns FALSE
T1BD0 003:253.857 JLINK_HasError()
T1BD0 003:315.871 JLINK_IsHalted()
T1BD0 003:319.496   CPU_ReadMem(2 bytes @ 0x20000000)
T1BD0 003:319.957 - 4.086ms returns TRUE
T1BD0 003:319.963 JLINK_ReadReg(R15 (PC))
T1BD0 003:319.968 - 0.004ms returns 0x20000000
T1BD0 003:319.972 JLINK_ClrBPEx(BPHandle = 0x00000002)
T1BD0 003:319.975 - 0.003ms returns 0x00
T1BD0 003:319.979 JLINK_ReadReg(R0)
T1BD0 003:319.982 - 0.003ms returns 0x00000000
T1BD0 003:371.471 JLINK_HasError()
T1BD0 003:371.490 JLINK_WriteReg(R0, 0x00000001)
T1BD0 003:371.498 - 0.007ms returns 0
T1BD0 003:371.502 JLINK_WriteReg(R1, 0x02625A00)
T1BD0 003:371.505 - 0.003ms returns 0
T1BD0 003:371.509 JLINK_WriteReg(R2, 0x00000001)
T1BD0 003:371.512 - 0.003ms returns 0
T1BD0 003:371.516 JLINK_WriteReg(R3, 0x00000000)
T1BD0 003:371.519 - 0.003ms returns 0
T1BD0 003:371.522 JLINK_WriteReg(R4, 0x00000000)
T1BD0 003:371.525 - 0.003ms returns 0
T1BD0 003:371.529 JLINK_WriteReg(R5, 0x00000000)
T1BD0 003:371.532 - 0.003ms returns 0
T1BD0 003:371.535 JLINK_WriteReg(R6, 0x00000000)
T1BD0 003:371.538 - 0.003ms returns 0
T1BD0 003:371.542 JLINK_WriteReg(R7, 0x00000000)
T1BD0 003:371.545 - 0.003ms returns 0
T1BD0 003:371.548 JLINK_WriteReg(R8, 0x00000000)
T1BD0 003:371.551 - 0.003ms returns 0
T1BD0 003:371.555 JLINK_WriteReg(R9, 0x200001C0)
T1BD0 003:371.558 - 0.002ms returns 0
T1BD0 003:371.561 JLINK_WriteReg(R10, 0x00000000)
T1BD0 003:371.564 - 0.003ms returns 0
T1BD0 003:371.568 JLINK_WriteReg(R11, 0x00000000)
T1BD0 003:371.571 - 0.003ms returns 0
T1BD0 003:371.574 JLINK_WriteReg(R12, 0x00000000)
T1BD0 003:371.577 - 0.002ms returns 0
T1BD0 003:371.581 JLINK_WriteReg(R13 (SP), 0x20001000)
T1BD0 003:371.585 - 0.004ms returns 0
T1BD0 003:371.589 JLINK_WriteReg(R14, 0x20000001)
T1BD0 003:371.592 - 0.003ms returns 0
T1BD0 003:371.595 JLINK_WriteReg(R15 (PC), 0x2000007A)
T1BD0 003:371.598 - 0.003ms returns 0
T1BD0 003:371.602 JLINK_WriteReg(XPSR, 0x01000000)
T1BD0 003:371.605 - 0.003ms returns 0
T1BD0 003:371.609 JLINK_WriteReg(MSP, 0x20001000)
T1BD0 003:371.612 - 0.003ms returns 0
T1BD0 003:371.615 JLINK_WriteReg(PSP, 0x20001000)
T1BD0 003:371.618 - 0.003ms returns 0
T1BD0 003:371.622 JLINK_WriteReg(CFBP, 0x00000000)
T1BD0 003:371.625 - 0.003ms returns 0
T1BD0 003:371.629 JLINK_SetBPEx(Addr = 0x20000000, Type = 0xFFFFFFF2)
T1BD0 003:371.633 - 0.004ms returns 0x00000003
T1BD0 003:371.637 JLINK_Go()
T1BD0 003:371.650   CPU_ReadMem(4 bytes @ 0xE0001000)
T1BD0 003:375.769 - 4.132ms
T1BD0 003:375.782 JLINK_IsHalted()
T1BD0 003:379.122   CPU_ReadMem(2 bytes @ 0x20000000)
T1BD0 003:379.645 - 3.862ms returns TRUE
T1BD0 003:379.651 JLINK_ReadReg(R15 (PC))
T1BD0 003:379.655 - 0.004ms returns 0x20000000
T1BD0 003:379.678 JLINK_ClrBPEx(BPHandle = 0x00000003)
T1BD0 003:379.682 - 0.003ms returns 0x00
T1BD0 003:379.686 JLINK_ReadReg(R0)
T1BD0 003:379.689 - 0.003ms returns 0x00000000
T1BD0 003:382.898 JLINK_WriteMem(0x20000000, 0x1D4 Bytes, ...)
T1BD0 003:382.906   Data:  00 BE 0A E0 0D 78 2D 06 68 40 08 24 40 00 00 D3 ...
T1BD0 003:382.920   CPU_WriteMem(468 bytes @ 0x20000000)
T1BD0 003:386.097 - 3.198ms returns 0x1D4
T1BD0 003:386.134 JLINK_HasError()
T1BD0 003:386.139 JLINK_WriteReg(R0, 0x08000000)
T1BD0 003:386.144 - 0.004ms returns 0
T1BD0 003:386.148 JLINK_WriteReg(R1, 0x02625A00)
T1BD0 003:386.151 - 0.003ms returns 0
T1BD0 003:386.159 JLINK_WriteReg(R2, 0x00000002)
T1BD0 003:386.162 - 0.003ms returns 0
T1BD0 003:386.166 JLINK_WriteReg(R3, 0x00000000)
T1BD0 003:386.169 - 0.003ms returns 0
T1BD0 003:386.173 JLINK_WriteReg(R4, 0x00000000)
T1BD0 003:386.176 - 0.003ms returns 0
T1BD0 003:386.179 JLINK_WriteReg(R5, 0x00000000)
T1BD0 003:386.182 - 0.003ms returns 0
T1BD0 003:386.186 JLINK_WriteReg(R6, 0x00000000)
T1BD0 003:386.189 - 0.003ms returns 0
T1BD0 003:386.192 JLINK_WriteReg(R7, 0x00000000)
T1BD0 003:386.195 - 0.003ms returns 0
T1BD0 003:386.199 JLINK_WriteReg(R8, 0x00000000)
T1BD0 003:386.202 - 0.003ms returns 0
T1BD0 003:386.205 JLINK_WriteReg(R9, 0x200001C0)
T1BD0 003:386.208 - 0.003ms returns 0
T1BD0 003:386.212 JLINK_WriteReg(R10, 0x00000000)
T1BD0 003:386.215 - 0.003ms returns 0
T1BD0 003:386.218 JLINK_WriteReg(R11, 0x00000000)
T1BD0 003:386.221 - 0.003ms returns 0
T1BD0 003:386.225 JLINK_WriteReg(R12, 0x00000000)
T1BD0 003:386.228 - 0.003ms returns 0
T1BD0 003:386.231 JLINK_WriteReg(R13 (SP), 0x20001000)
T1BD0 003:386.235 - 0.003ms returns 0
T1BD0 003:386.239 JLINK_WriteReg(R14, 0x20000001)
T1BD0 003:386.242 - 0.003ms returns 0
T1BD0 003:386.245 JLINK_WriteReg(R15 (PC), 0x20000020)
T1BD0 003:386.248 - 0.003ms returns 0
T1BD0 003:386.252 JLINK_WriteReg(XPSR, 0x01000000)
T1BD0 003:386.255 - 0.003ms returns 0
T1BD0 003:386.258 JLINK_WriteReg(MSP, 0x20001000)
T1BD0 003:386.261 - 0.003ms returns 0
T1BD0 003:386.265 JLINK_WriteReg(PSP, 0x20001000)
T1BD0 003:386.268 - 0.003ms returns 0
T1BD0 003:386.271 JLINK_WriteReg(CFBP, 0x00000000)
T1BD0 003:386.274 - 0.003ms returns 0
T1BD0 003:386.278 JLINK_SetBPEx(Addr = 0x20000000, Type = 0xFFFFFFF2)
T1BD0 003:386.284   CPU_ReadMem(2 bytes @ 0x20000000)
T1BD0 003:386.753 - 0.474ms returns 0x00000004
T1BD0 003:386.758 JLINK_Go()
T1BD0 003:386.762   CPU_WriteMem(2 bytes @ 0x20000000)
T1BD0 003:387.399   CPU_ReadMem(4 bytes @ 0xE0001000)
T1BD0 003:391.023 - 4.265ms
T1BD0 003:391.028 JLINK_IsHalted()
T1BD0 003:394.484   CPU_ReadMem(2 bytes @ 0x20000000)
T1BD0 003:394.936 - 3.907ms returns TRUE
T1BD0 003:394.940 JLINK_ReadReg(R15 (PC))
T1BD0 003:394.944 - 0.003ms returns 0x20000000
T1BD0 003:394.948 JLINK_ClrBPEx(BPHandle = 0x00000004)
T1BD0 003:394.951 - 0.003ms returns 0x00
T1BD0 003:394.955 JLINK_ReadReg(R0)
T1BD0 003:394.958 - 0.003ms returns 0x00000000
T1BD0 003:395.104 JLINK_WriteMem(0x200001D4, 0x400 Bytes, ...)
T1BD0 003:395.109   Data:  28 0D 00 20 ED 01 00 08 43 58 00 08 43 52 00 08 ...
T1BD0 003:395.118   CPU_WriteMem(1024 bytes @ 0x200001D4)
T1BD0 003:401.417 - 6.311ms returns 0x400
T1BD0 003:401.432 JLINK_HasError()
T1BD0 003:401.437 JLINK_WriteReg(R0, 0x08000000)
T1BD0 003:401.444 - 0.006ms returns 0
T1BD0 003:401.447 JLINK_WriteReg(R1, 0x00000400)
T1BD0 003:401.451 - 0.003ms returns 0
T1BD0 003:401.454 JLINK_WriteReg(R2, 0x200001D4)
T1BD0 003:401.458 - 0.003ms returns 0
T1BD0 003:401.461 JLINK_WriteReg(R3, 0x00000000)
T1BD0 003:401.464 - 0.003ms returns 0
T1BD0 003:401.468 JLINK_WriteReg(R4, 0x00000000)
T1BD0 003:401.471 - 0.003ms returns 0
T1BD0 003:401.474 JLINK_WriteReg(R5, 0x00000000)
T1BD0 003:401.477 - 0.003ms returns 0
T1BD0 003:401.481 JLINK_WriteReg(R6, 0x00000000)
T1BD0 003:401.484 - 0.003ms returns 0
T1BD0 003:401.487 JLINK_WriteReg(R7, 0x00000000)
T1BD0 003:401.490 - 0.002ms returns 0
T1BD0 003:401.494 JLINK_WriteReg(R8, 0x00000000)
T1BD0 003:401.497 - 0.003ms returns 0
T1BD0 003:401.500 JLINK_WriteReg(R9, 0x200001C0)
T1BD0 003:401.503 - 0.002ms returns 0
T1BD0 003:401.507 JLINK_WriteReg(R10, 0x00000000)
T1BD0 003:401.510 - 0.003ms returns 0
T1BD0 003:401.513 JLINK_WriteReg(R11, 0x00000000)
T1BD0 003:401.516 - 0.003ms returns 0
T1BD0 003:401.520 JLINK_WriteReg(R12, 0x00000000)
T1BD0 003:401.523 - 0.003ms returns 0
T1BD0 003:401.526 JLINK_WriteReg(R13 (SP), 0x20001000)
T1BD0 003:401.530 - 0.003ms returns 0
T1BD0 003:401.534 JLINK_WriteReg(R14, 0x20000001)
T1BD0 003:401.537 - 0.003ms returns 0
T1BD0 003:401.540 JLINK_WriteReg(R15 (PC), 0x2000012E)
T1BD0 003:401.543 - 0.003ms returns 0
T1BD0 003:401.552 JLINK_WriteReg(XPSR, 0x01000000)
T1BD0 003:401.555 - 0.003ms returns 0
T1BD0 003:401.558 JLINK_WriteReg(MSP, 0x20001000)
T1BD0 003:401.561 - 0.003ms returns 0
T1BD0 003:401.565 JLINK_WriteReg(PSP, 0x20001000)
T1BD0 003:401.568 - 0.002ms returns 0
T1BD0 003:401.571 JLINK_WriteReg(CFBP, 0x00000000)
T1BD0 003:401.574 - 0.003ms returns 0
T1BD0 003:401.578 JLINK_SetBPEx(Addr = 0x20000000, Type = 0xFFFFFFF2)
T1BD0 003:401.582 - 0.004ms returns 0x00000005
T1BD0 003:401.586 JLINK_Go()
T1BD0 003:401.595   CPU_ReadMem(4 bytes @ 0xE0001000)
T1BD0 003:405.417 - 3.830ms
T1BD0 003:405.424 JLINK_IsHalted()
T1BD0 003:405.875 - 0.451ms returns FALSE
T1BD0 003:405.880 JLINK_HasError()
T1BD0 003:429.870 JLINK_IsHalted()
T1BD0 003:433.439   CPU_ReadMem(2 bytes @ 0x20000000)
T1BD0 003:433.937 - 4.066ms returns TRUE
T1BD0 003:433.949 JLINK_ReadReg(R15 (PC))
T1BD0 003:433.955 - 0.006ms returns 0x20000000
T1BD0 003:433.982 JLINK_ClrBPEx(BPHandle = 0x00000005)
T1BD0 003:433.986 - 0.003ms returns 0x00
T1BD0 003:433.990 JLINK_ReadReg(R0)
T1BD0 003:433.993 - 0.003ms returns 0x00000000
T1BD0 003:434.308 JLINK_WriteMem(0x200001D4, 0x400 Bytes, ...)
T1BD0 003:434.314   Data:  70 47 40 1C 49 00 08 BF 20 F0 01 00 70 47 10 B4 ...
T1BD0 003:434.324   CPU_WriteMem(1024 bytes @ 0x200001D4)
T1BD0 003:440.407 - 6.099ms returns 0x400
T1BD0 003:440.414 JLINK_HasError()
T1BD0 003:440.419 JLINK_WriteReg(R0, 0x08000400)
T1BD0 003:440.424 - 0.004ms returns 0
T1BD0 003:440.427 JLINK_WriteReg(R1, 0x00000400)
T1BD0 003:440.431 - 0.003ms returns 0
T1BD0 003:440.435 JLINK_WriteReg(R2, 0x200001D4)
T1BD0 003:440.438 - 0.002ms returns 0
T1BD0 003:440.441 JLINK_WriteReg(R3, 0x00000000)
T1BD0 003:440.444 - 0.003ms returns 0
T1BD0 003:440.448 JLINK_WriteReg(R4, 0x00000000)
T1BD0 003:440.451 - 0.003ms returns 0
T1BD0 003:440.454 JLINK_WriteReg(R5, 0x00000000)
T1BD0 003:440.457 - 0.002ms returns 0
T1BD0 003:440.461 JLINK_WriteReg(R6, 0x00000000)
T1BD0 003:440.464 - 0.003ms returns 0
T1BD0 003:440.467 JLINK_WriteReg(R7, 0x00000000)
T1BD0 003:440.470 - 0.003ms returns 0
T1BD0 003:440.474 JLINK_WriteReg(R8, 0x00000000)
T1BD0 003:440.477 - 0.003ms returns 0
T1BD0 003:440.480 JLINK_WriteReg(R9, 0x200001C0)
T1BD0 003:440.483 - 0.003ms returns 0
T1BD0 003:440.487 JLINK_WriteReg(R10, 0x00000000)
T1BD0 003:440.490 - 0.003ms returns 0
T1BD0 003:440.493 JLINK_WriteReg(R11, 0x00000000)
T1BD0 003:440.496 - 0.003ms returns 0
T1BD0 003:440.500 JLINK_WriteReg(R12, 0x00000000)
T1BD0 003:440.503 - 0.003ms returns 0
T1BD0 003:440.507 JLINK_WriteReg(R13 (SP), 0x20001000)
T1BD0 003:440.510 - 0.003ms returns 0
T1BD0 003:440.514 JLINK_WriteReg(R14, 0x20000001)
T1BD0 003:440.517 - 0.003ms returns 0
T1BD0 003:440.520 JLINK_WriteReg(R15 (PC), 0x2000012E)
T1BD0 003:440.523 - 0.003ms returns 0
T1BD0 003:440.527 JLINK_WriteReg(XPSR, 0x01000000)
T1BD0 003:440.530 - 0.003ms returns 0
T1BD0 003:440.534 JLINK_WriteReg(MSP, 0x20001000)
T1BD0 003:440.537 - 0.003ms returns 0
T1BD0 003:440.540 JLINK_WriteReg(PSP, 0x20001000)
T1BD0 003:440.543 - 0.003ms returns 0
T1BD0 003:440.547 JLINK_WriteReg(CFBP, 0x00000000)
T1BD0 003:440.550 - 0.003ms returns 0
T1BD0 003:440.554 JLINK_SetBPEx(Addr = 0x20000000, Type = 0xFFFFFFF2)
T1BD0 003:440.557 - 0.003ms returns 0x00000006
T1BD0 003:440.561 JLINK_Go()
T1BD0 003:440.569   CPU_ReadMem(4 bytes @ 0xE0001000)
T1BD0 003:444.400 - 3.838ms
T1BD0 003:444.405 JLINK_IsHalted()
T1BD0 003:444.830 - 0.425ms returns FALSE
T1BD0 003:444.835 JLINK_HasError()
T1BD0 003:446.868 JLINK_IsHalted()
T1BD0 003:447.651 - 0.782ms returns FALSE
T1BD0 003:447.663 JLINK_HasError()
T1BD0 003:448.869 JLINK_IsHalted()
T1BD0 003:449.633 - 0.764ms returns FALSE
T1BD0 003:449.638 JLINK_HasError()
T1BD0 003:450.866 JLINK_IsHalted()
T1BD0 003:451.402 - 0.535ms returns FALSE
T1BD0 003:451.407 JLINK_HasError()
T1BD0 003:452.865 JLINK_IsHalted()
T1BD0 003:453.403 - 0.537ms returns FALSE
T1BD0 003:453.407 JLINK_HasError()
T1BD0 003:454.865 JLINK_IsHalted()
T1BD0 003:455.403 - 0.537ms returns FALSE
T1BD0 003:455.410 JLINK_HasError()
T1BD0 003:456.866 JLINK_IsHalted()
T1BD0 003:460.125   CPU_ReadMem(2 bytes @ 0x20000000)
T1BD0 003:460.644 - 3.778ms returns TRUE
T1BD0 003:460.650 JLINK_ReadReg(R15 (PC))
T1BD0 003:460.655 - 0.004ms returns 0x20000000
T1BD0 003:460.677 JLINK_ClrBPEx(BPHandle = 0x00000006)
T1BD0 003:460.681 - 0.003ms returns 0x00
T1BD0 003:460.685 JLINK_ReadReg(R0)
T1BD0 003:460.688 - 0.003ms returns 0x00000000
T1BD0 003:460.960 JLINK_WriteMem(0x200001D4, 0x400 Bytes, ...)
T1BD0 003:460.964   Data:  F5 EE C0 0A 71 EE 84 4A 62 EE 01 3A B6 EE 00 2A ...
T1BD0 003:460.973   CPU_WriteMem(1024 bytes @ 0x200001D4)
T1BD0 003:467.408 - 6.448ms returns 0x400
T1BD0 003:467.420 JLINK_HasError()
T1BD0 003:467.425 JLINK_WriteReg(R0, 0x08000800)
T1BD0 003:467.432 - 0.006ms returns 0
T1BD0 003:467.436 JLINK_WriteReg(R1, 0x00000400)
T1BD0 003:467.439 - 0.003ms returns 0
T1BD0 003:467.443 JLINK_WriteReg(R2, 0x200001D4)
T1BD0 003:467.446 - 0.003ms returns 0
T1BD0 003:467.449 JLINK_WriteReg(R3, 0x00000000)
T1BD0 003:467.452 - 0.003ms returns 0
T1BD0 003:467.456 JLINK_WriteReg(R4, 0x00000000)
T1BD0 003:467.459 - 0.003ms returns 0
T1BD0 003:467.462 JLINK_WriteReg(R5, 0x00000000)
T1BD0 003:467.465 - 0.002ms returns 0
T1BD0 003:467.469 JLINK_WriteReg(R6, 0x00000000)
T1BD0 003:467.472 - 0.003ms returns 0
T1BD0 003:467.475 JLINK_WriteReg(R7, 0x00000000)
T1BD0 003:467.478 - 0.003ms returns 0
T1BD0 003:467.482 JLINK_WriteReg(R8, 0x00000000)
T1BD0 003:467.485 - 0.003ms returns 0
T1BD0 003:467.489 JLINK_WriteReg(R9, 0x200001C0)
T1BD0 003:467.492 - 0.003ms returns 0
T1BD0 003:467.495 JLINK_WriteReg(R10, 0x00000000)
T1BD0 003:467.498 - 0.003ms returns 0
T1BD0 003:467.502 JLINK_WriteReg(R11, 0x00000000)
T1BD0 003:467.505 - 0.003ms returns 0
T1BD0 003:467.508 JLINK_WriteReg(R12, 0x00000000)
T1BD0 003:467.511 - 0.003ms returns 0
T1BD0 003:467.515 JLINK_WriteReg(R13 (SP), 0x20001000)
T1BD0 003:467.519 - 0.003ms returns 0
T1BD0 003:467.522 JLINK_WriteReg(R14, 0x20000001)
T1BD0 003:467.525 - 0.003ms returns 0
T1BD0 003:467.529 JLINK_WriteReg(R15 (PC), 0x2000012E)
T1BD0 003:467.532 - 0.003ms returns 0
T1BD0 003:467.536 JLINK_WriteReg(XPSR, 0x01000000)
T1BD0 003:467.539 - 0.003ms returns 0
T1BD0 003:467.542 JLINK_WriteReg(MSP, 0x20001000)
T1BD0 003:467.545 - 0.003ms returns 0
T1BD0 003:467.549 JLINK_WriteReg(PSP, 0x20001000)
T1BD0 003:467.552 - 0.003ms returns 0
T1BD0 003:467.555 JLINK_WriteReg(CFBP, 0x00000000)
T1BD0 003:467.558 - 0.002ms returns 0
T1BD0 003:467.562 JLINK_SetBPEx(Addr = 0x20000000, Type = 0xFFFFFFF2)
T1BD0 003:467.566 - 0.004ms returns 0x00000007
T1BD0 003:467.570 JLINK_Go()
T1BD0 003:467.579   CPU_ReadMem(4 bytes @ 0xE0001000)
T1BD0 003:471.399 - 3.829ms
T1BD0 003:471.405 JLINK_IsHalted()
T1BD0 003:471.852 - 0.447ms returns FALSE
T1BD0 003:471.857 JLINK_HasError()
T1BD0 003:473.866 JLINK_IsHalted()
T1BD0 003:474.404 - 0.537ms returns FALSE
T1BD0 003:474.408 JLINK_HasError()
T1BD0 003:475.866 JLINK_IsHalted()
T1BD0 003:476.623 - 0.757ms returns FALSE
T1BD0 003:476.628 JLINK_HasError()
T1BD0 003:477.866 JLINK_IsHalted()
T1BD0 003:478.402 - 0.536ms returns FALSE
T1BD0 003:478.407 JLINK_HasError()
T1BD0 003:479.866 JLINK_IsHalted()
T1BD0 003:480.406 - 0.539ms returns FALSE
T1BD0 003:480.443 JLINK_HasError()
T1BD0 003:481.868 JLINK_IsHalted()
T1BD0 003:482.396 - 0.527ms returns FALSE
T1BD0 003:482.401 JLINK_HasError()
T1BD0 003:483.866 JLINK_IsHalted()
T1BD0 003:487.087   CPU_ReadMem(2 bytes @ 0x20000000)
T1BD0 003:487.604 - 3.737ms returns TRUE
T1BD0 003:487.610 JLINK_ReadReg(R15 (PC))
T1BD0 003:487.614 - 0.004ms returns 0x20000000
T1BD0 003:487.636 JLINK_ClrBPEx(BPHandle = 0x00000007)
T1BD0 003:487.640 - 0.003ms returns 0x00
T1BD0 003:487.644 JLINK_ReadReg(R0)
T1BD0 003:487.647 - 0.003ms returns 0x00000000
T1BD0 003:487.929 JLINK_WriteMem(0x200001D4, 0x400 Bytes, ...)
T1BD0 003:487.934   Data:  40 68 00 90 FF F7 84 FF E2 69 00 25 00 98 4F F0 ...
T1BD0 003:487.943   CPU_WriteMem(1024 bytes @ 0x200001D4)
T1BD0 003:494.396 - 6.467ms returns 0x400
T1BD0 003:494.442 JLINK_HasError()
T1BD0 003:494.449 JLINK_WriteReg(R0, 0x08000C00)
T1BD0 003:494.453 - 0.004ms returns 0
T1BD0 003:494.457 JLINK_WriteReg(R1, 0x00000400)
T1BD0 003:494.460 - 0.003ms returns 0
T1BD0 003:494.464 JLINK_WriteReg(R2, 0x200001D4)
T1BD0 003:494.467 - 0.003ms returns 0
T1BD0 003:494.470 JLINK_WriteReg(R3, 0x00000000)
T1BD0 003:494.473 - 0.003ms returns 0
T1BD0 003:494.477 JLINK_WriteReg(R4, 0x00000000)
T1BD0 003:494.480 - 0.002ms returns 0
T1BD0 003:494.483 JLINK_WriteReg(R5, 0x00000000)
T1BD0 003:494.486 - 0.003ms returns 0
T1BD0 003:494.490 JLINK_WriteReg(R6, 0x00000000)
T1BD0 003:494.493 - 0.003ms returns 0
T1BD0 003:494.496 JLINK_WriteReg(R7, 0x00000000)
T1BD0 003:494.499 - 0.003ms returns 0
T1BD0 003:494.503 JLINK_WriteReg(R8, 0x00000000)
T1BD0 003:494.506 - 0.003ms returns 0
T1BD0 003:494.509 JLINK_WriteReg(R9, 0x200001C0)
T1BD0 003:494.512 - 0.003ms returns 0
T1BD0 003:494.516 JLINK_WriteReg(R10, 0x00000000)
T1BD0 003:494.519 - 0.003ms returns 0
T1BD0 003:494.523 JLINK_WriteReg(R11, 0x00000000)
T1BD0 003:494.526 - 0.003ms returns 0
T1BD0 003:494.529 JLINK_WriteReg(R12, 0x00000000)
T1BD0 003:494.532 - 0.003ms returns 0
T1BD0 003:494.536 JLINK_WriteReg(R13 (SP), 0x20001000)
T1BD0 003:494.539 - 0.003ms returns 0
T1BD0 003:494.543 JLINK_WriteReg(R14, 0x20000001)
T1BD0 003:494.546 - 0.003ms returns 0
T1BD0 003:494.549 JLINK_WriteReg(R15 (PC), 0x2000012E)
T1BD0 003:494.552 - 0.003ms returns 0
T1BD0 003:494.556 JLINK_WriteReg(XPSR, 0x01000000)
T1BD0 003:494.559 - 0.003ms returns 0
T1BD0 003:494.563 JLINK_WriteReg(MSP, 0x20001000)
T1BD0 003:494.566 - 0.002ms returns 0
T1BD0 003:494.569 JLINK_WriteReg(PSP, 0x20001000)
T1BD0 003:494.572 - 0.003ms returns 0
T1BD0 003:494.576 JLINK_WriteReg(CFBP, 0x00000000)
T1BD0 003:494.579 - 0.003ms returns 0
T1BD0 003:494.583 JLINK_SetBPEx(Addr = 0x20000000, Type = 0xFFFFFFF2)
T1BD0 003:494.586 - 0.003ms returns 0x00000008
T1BD0 003:494.590 JLINK_Go()
T1BD0 003:494.597   CPU_ReadMem(4 bytes @ 0xE0001000)
T1BD0 003:498.420 - 3.829ms
T1BD0 003:498.433 JLINK_IsHalted()
T1BD0 003:498.892 - 0.459ms returns FALSE
T1BD0 003:498.897 JLINK_HasError()
T1BD0 003:500.867 JLINK_IsHalted()
T1BD0 003:501.395 - 0.527ms returns FALSE
T1BD0 003:501.400 JLINK_HasError()
T1BD0 003:502.866 JLINK_IsHalted()
T1BD0 003:503.399 - 0.533ms returns FALSE
T1BD0 003:503.404 JLINK_HasError()
T1BD0 003:505.867 JLINK_IsHalted()
T1BD0 003:506.414 - 0.546ms returns FALSE
T1BD0 003:506.419 JLINK_HasError()
T1BD0 003:508.866 JLINK_IsHalted()
T1BD0 003:509.394 - 0.528ms returns FALSE
T1BD0 003:509.399 JLINK_HasError()
T1BD0 003:510.866 JLINK_IsHalted()
T1BD0 003:514.098   CPU_ReadMem(2 bytes @ 0x20000000)
T1BD0 003:514.650 - 3.783ms returns TRUE
T1BD0 003:514.660 JLINK_ReadReg(R15 (PC))
T1BD0 003:514.667 - 0.006ms returns 0x20000000
T1BD0 003:514.694 JLINK_ClrBPEx(BPHandle = 0x00000008)
T1BD0 003:514.699 - 0.004ms returns 0x00
T1BD0 003:514.703 JLINK_ReadReg(R0)
T1BD0 003:514.706 - 0.003ms returns 0x00000000
T1BD0 003:514.992 JLINK_WriteMem(0x200001D4, 0x400 Bytes, ...)
T1BD0 003:514.996   Data:  04 00 8D F8 05 50 21 89 00 22 60 68 02 F0 05 F9 ...
T1BD0 003:515.007   CPU_WriteMem(1024 bytes @ 0x200001D4)
T1BD0 003:521.405 - 6.413ms returns 0x400
T1BD0 003:521.411 JLINK_HasError()
T1BD0 003:521.415 JLINK_WriteReg(R0, 0x08001000)
T1BD0 003:521.420 - 0.004ms returns 0
T1BD0 003:521.423 JLINK_WriteReg(R1, 0x00000400)
T1BD0 003:521.427 - 0.003ms returns 0
T1BD0 003:521.430 JLINK_WriteReg(R2, 0x200001D4)
T1BD0 003:521.433 - 0.003ms returns 0
T1BD0 003:521.437 JLINK_WriteReg(R3, 0x00000000)
T1BD0 003:521.440 - 0.003ms returns 0
T1BD0 003:521.443 JLINK_WriteReg(R4, 0x00000000)
T1BD0 003:521.446 - 0.003ms returns 0
T1BD0 003:521.450 JLINK_WriteReg(R5, 0x00000000)
T1BD0 003:521.453 - 0.003ms returns 0
T1BD0 003:521.456 JLINK_WriteReg(R6, 0x00000000)
T1BD0 003:521.459 - 0.002ms returns 0
T1BD0 003:521.463 JLINK_WriteReg(R7, 0x00000000)
T1BD0 003:521.466 - 0.003ms returns 0
T1BD0 003:521.469 JLINK_WriteReg(R8, 0x00000000)
T1BD0 003:521.475 - 0.005ms returns 0
T1BD0 003:521.481 JLINK_WriteReg(R9, 0x200001C0)
T1BD0 003:521.484 - 0.003ms returns 0
T1BD0 003:521.488 JLINK_WriteReg(R10, 0x00000000)
T1BD0 003:521.491 - 0.003ms returns 0
T1BD0 003:521.494 JLINK_WriteReg(R11, 0x00000000)
T1BD0 003:521.497 - 0.003ms returns 0
T1BD0 003:521.501 JLINK_WriteReg(R12, 0x00000000)
T1BD0 003:521.504 - 0.003ms returns 0
T1BD0 003:521.507 JLINK_WriteReg(R13 (SP), 0x20001000)
T1BD0 003:521.511 - 0.003ms returns 0
T1BD0 003:521.514 JLINK_WriteReg(R14, 0x20000001)
T1BD0 003:521.517 - 0.003ms returns 0
T1BD0 003:521.521 JLINK_WriteReg(R15 (PC), 0x2000012E)
T1BD0 003:521.524 - 0.003ms returns 0
T1BD0 003:521.528 JLINK_WriteReg(XPSR, 0x01000000)
T1BD0 003:521.531 - 0.003ms returns 0
T1BD0 003:521.534 JLINK_WriteReg(MSP, 0x20001000)
T1BD0 003:521.537 - 0.003ms returns 0
T1BD0 003:521.541 JLINK_WriteReg(PSP, 0x20001000)
T1BD0 003:521.544 - 0.003ms returns 0
T1BD0 003:521.547 JLINK_WriteReg(CFBP, 0x00000000)
T1BD0 003:521.550 - 0.003ms returns 0
T1BD0 003:521.555 JLINK_SetBPEx(Addr = 0x20000000, Type = 0xFFFFFFF2)
T1BD0 003:521.558 - 0.003ms returns 0x00000009
T1BD0 003:521.562 JLINK_Go()
T1BD0 003:521.571   CPU_ReadMem(4 bytes @ 0xE0001000)
T1BD0 003:525.403 - 3.840ms
T1BD0 003:525.408 JLINK_IsHalted()
T1BD0 003:525.849 - 0.440ms returns FALSE
T1BD0 003:525.854 JLINK_HasError()
T1BD0 003:527.867 JLINK_IsHalted()
T1BD0 003:528.625 - 0.757ms returns FALSE
T1BD0 003:528.631 JLINK_HasError()
T1BD0 003:530.871 JLINK_IsHalted()
T1BD0 003:531.415 - 0.544ms returns FALSE
T1BD0 003:531.420 JLINK_HasError()
T1BD0 003:532.870 JLINK_IsHalted()
T1BD0 003:533.624 - 0.754ms returns FALSE
T1BD0 003:533.629 JLINK_HasError()
T1BD0 003:534.866 JLINK_IsHalted()
T1BD0 003:535.402 - 0.536ms returns FALSE
T1BD0 003:535.406 JLINK_HasError()
T1BD0 003:536.865 JLINK_IsHalted()
T1BD0 003:540.126   CPU_ReadMem(2 bytes @ 0x20000000)
T1BD0 003:540.643 - 3.777ms returns TRUE
T1BD0 003:540.650 JLINK_ReadReg(R15 (PC))
T1BD0 003:540.654 - 0.004ms returns 0x20000000
T1BD0 003:540.677 JLINK_ClrBPEx(BPHandle = 0x00000009)
T1BD0 003:540.680 - 0.003ms returns 0x00
T1BD0 003:540.684 JLINK_ReadReg(R0)
T1BD0 003:540.687 - 0.003ms returns 0x00000000
T1BD0 003:540.955 JLINK_WriteMem(0x200001D4, 0x400 Bytes, ...)
T1BD0 003:540.960   Data:  9F ED 35 9A DF ED 36 9A 9F ED 36 AA F0 EE 48 4A ...
T1BD0 003:540.970   CPU_WriteMem(1024 bytes @ 0x200001D4)
T1BD0 003:547.411 - 6.455ms returns 0x400
T1BD0 003:547.424 JLINK_HasError()
T1BD0 003:547.429 JLINK_WriteReg(R0, 0x08001400)
T1BD0 003:547.435 - 0.006ms returns 0
T1BD0 003:547.439 JLINK_WriteReg(R1, 0x00000400)
T1BD0 003:547.443 - 0.003ms returns 0
T1BD0 003:547.446 JLINK_WriteReg(R2, 0x200001D4)
T1BD0 003:547.450 - 0.003ms returns 0
T1BD0 003:547.453 JLINK_WriteReg(R3, 0x00000000)
T1BD0 003:547.456 - 0.003ms returns 0
T1BD0 003:547.460 JLINK_WriteReg(R4, 0x00000000)
T1BD0 003:547.463 - 0.003ms returns 0
T1BD0 003:547.466 JLINK_WriteReg(R5, 0x00000000)
T1BD0 003:547.469 - 0.003ms returns 0
T1BD0 003:547.473 JLINK_WriteReg(R6, 0x00000000)
T1BD0 003:547.476 - 0.003ms returns 0
T1BD0 003:547.479 JLINK_WriteReg(R7, 0x00000000)
T1BD0 003:547.482 - 0.002ms returns 0
T1BD0 003:547.486 JLINK_WriteReg(R8, 0x00000000)
T1BD0 003:547.489 - 0.003ms returns 0
T1BD0 003:547.493 JLINK_WriteReg(R9, 0x200001C0)
T1BD0 003:547.496 - 0.003ms returns 0
T1BD0 003:547.499 JLINK_WriteReg(R10, 0x00000000)
T1BD0 003:547.502 - 0.003ms returns 0
T1BD0 003:547.506 JLINK_WriteReg(R11, 0x00000000)
T1BD0 003:547.509 - 0.003ms returns 0
T1BD0 003:547.512 JLINK_WriteReg(R12, 0x00000000)
T1BD0 003:547.515 - 0.003ms returns 0
T1BD0 003:547.519 JLINK_WriteReg(R13 (SP), 0x20001000)
T1BD0 003:547.523 - 0.003ms returns 0
T1BD0 003:547.526 JLINK_WriteReg(R14, 0x20000001)
T1BD0 003:547.529 - 0.002ms returns 0
T1BD0 003:547.533 JLINK_WriteReg(R15 (PC), 0x2000012E)
T1BD0 003:547.536 - 0.003ms returns 0
T1BD0 003:547.540 JLINK_WriteReg(XPSR, 0x01000000)
T1BD0 003:547.543 - 0.003ms returns 0
T1BD0 003:547.546 JLINK_WriteReg(MSP, 0x20001000)
T1BD0 003:547.555 - 0.008ms returns 0
T1BD0 003:547.559 JLINK_WriteReg(PSP, 0x20001000)
T1BD0 003:547.562 - 0.003ms returns 0
T1BD0 003:547.565 JLINK_WriteReg(CFBP, 0x00000000)
T1BD0 003:547.568 - 0.003ms returns 0
T1BD0 003:547.573 JLINK_SetBPEx(Addr = 0x20000000, Type = 0xFFFFFFF2)
T1BD0 003:547.580 - 0.007ms returns 0x0000000A
T1BD0 003:547.584 JLINK_Go()
T1BD0 003:547.594   CPU_ReadMem(4 bytes @ 0xE0001000)
T1BD0 003:551.398 - 3.814ms
T1BD0 003:551.408 JLINK_IsHalted()
T1BD0 003:551.870 - 0.461ms returns FALSE
T1BD0 003:551.875 JLINK_HasError()
T1BD0 003:554.868 JLINK_IsHalted()
T1BD0 003:555.416 - 0.548ms returns FALSE
T1BD0 003:555.425 JLINK_HasError()
T1BD0 003:556.866 JLINK_IsHalted()
T1BD0 003:557.417 - 0.550ms returns FALSE
T1BD0 003:557.421 JLINK_HasError()
T1BD0 003:559.867 JLINK_IsHalted()
T1BD0 003:560.395 - 0.527ms returns FALSE
T1BD0 003:560.400 JLINK_HasError()
T1BD0 003:562.868 JLINK_IsHalted()
T1BD0 003:566.146   CPU_ReadMem(2 bytes @ 0x20000000)
T1BD0 003:566.627 - 3.758ms returns TRUE
T1BD0 003:566.634 JLINK_ReadReg(R15 (PC))
T1BD0 003:566.640 - 0.005ms returns 0x20000000
T1BD0 003:566.664 JLINK_ClrBPEx(BPHandle = 0x0000000A)
T1BD0 003:566.668 - 0.003ms returns 0x00
T1BD0 003:566.672 JLINK_ReadReg(R0)
T1BD0 003:566.676 - 0.003ms returns 0x00000000
T1BD0 003:566.955 JLINK_WriteMem(0x200001D4, 0x400 Bytes, ...)
T1BD0 003:566.959   Data:  C1 60 20 68 03 F0 74 FD 82 46 20 68 03 F0 68 FD ...
T1BD0 003:566.970   CPU_WriteMem(1024 bytes @ 0x200001D4)
T1BD0 003:573.406 - 6.452ms returns 0x400
T1BD0 003:573.413 JLINK_HasError()
T1BD0 003:573.417 JLINK_WriteReg(R0, 0x08001800)
T1BD0 003:573.422 - 0.004ms returns 0
T1BD0 003:573.425 JLINK_WriteReg(R1, 0x00000400)
T1BD0 003:573.428 - 0.003ms returns 0
T1BD0 003:573.432 JLINK_WriteReg(R2, 0x200001D4)
T1BD0 003:573.435 - 0.003ms returns 0
T1BD0 003:573.438 JLINK_WriteReg(R3, 0x00000000)
T1BD0 003:573.441 - 0.002ms returns 0
T1BD0 003:573.445 JLINK_WriteReg(R4, 0x00000000)
T1BD0 003:573.448 - 0.003ms returns 0
T1BD0 003:573.451 JLINK_WriteReg(R5, 0x00000000)
T1BD0 003:573.454 - 0.002ms returns 0
T1BD0 003:573.458 JLINK_WriteReg(R6, 0x00000000)
T1BD0 003:573.461 - 0.002ms returns 0
T1BD0 003:573.464 JLINK_WriteReg(R7, 0x00000000)
T1BD0 003:573.468 - 0.003ms returns 0
T1BD0 003:573.471 JLINK_WriteReg(R8, 0x00000000)
T1BD0 003:573.474 - 0.003ms returns 0
T1BD0 003:573.478 JLINK_WriteReg(R9, 0x200001C0)
T1BD0 003:573.481 - 0.002ms returns 0
T1BD0 003:573.484 JLINK_WriteReg(R10, 0x00000000)
T1BD0 003:573.487 - 0.003ms returns 0
T1BD0 003:573.491 JLINK_WriteReg(R11, 0x00000000)
T1BD0 003:573.494 - 0.003ms returns 0
T1BD0 003:573.497 JLINK_WriteReg(R12, 0x00000000)
T1BD0 003:573.500 - 0.002ms returns 0
T1BD0 003:573.504 JLINK_WriteReg(R13 (SP), 0x20001000)
T1BD0 003:573.507 - 0.003ms returns 0
T1BD0 003:573.511 JLINK_WriteReg(R14, 0x20000001)
T1BD0 003:573.514 - 0.003ms returns 0
T1BD0 003:573.518 JLINK_WriteReg(R15 (PC), 0x2000012E)
T1BD0 003:573.521 - 0.003ms returns 0
T1BD0 003:573.524 JLINK_WriteReg(XPSR, 0x01000000)
T1BD0 003:573.527 - 0.003ms returns 0
T1BD0 003:573.531 JLINK_WriteReg(MSP, 0x20001000)
T1BD0 003:573.534 - 0.003ms returns 0
T1BD0 003:573.537 JLINK_WriteReg(PSP, 0x20001000)
T1BD0 003:573.540 - 0.002ms returns 0
T1BD0 003:573.544 JLINK_WriteReg(CFBP, 0x00000000)
T1BD0 003:573.547 - 0.003ms returns 0
T1BD0 003:573.550 JLINK_SetBPEx(Addr = 0x20000000, Type = 0xFFFFFFF2)
T1BD0 003:573.554 - 0.003ms returns 0x0000000B
T1BD0 003:573.557 JLINK_Go()
T1BD0 003:573.565   CPU_ReadMem(4 bytes @ 0xE0001000)
T1BD0 003:577.420 - 3.862ms
T1BD0 003:577.427 JLINK_IsHalted()
T1BD0 003:577.873 - 0.446ms returns FALSE
T1BD0 003:577.878 JLINK_HasError()
T1BD0 003:579.867 JLINK_IsHalted()
T1BD0 003:580.412 - 0.544ms returns FALSE
T1BD0 003:580.446 JLINK_HasError()
T1BD0 003:582.868 JLINK_IsHalted()
T1BD0 003:583.395 - 0.527ms returns FALSE
T1BD0 003:583.400 JLINK_HasError()
T1BD0 003:584.866 JLINK_IsHalted()
T1BD0 003:585.402 - 0.536ms returns FALSE
T1BD0 003:585.410 JLINK_HasError()
T1BD0 003:587.867 JLINK_IsHalted()
T1BD0 003:588.416 - 0.549ms returns FALSE
T1BD0 003:588.421 JLINK_HasError()
T1BD0 003:590.866 JLINK_IsHalted()
T1BD0 003:594.124   CPU_ReadMem(2 bytes @ 0x20000000)
T1BD0 003:594.644 - 3.777ms returns TRUE
T1BD0 003:594.651 JLINK_ReadReg(R15 (PC))
T1BD0 003:594.655 - 0.004ms returns 0x20000000
T1BD0 003:594.680 JLINK_ClrBPEx(BPHandle = 0x0000000B)
T1BD0 003:594.684 - 0.003ms returns 0x00
T1BD0 003:594.688 JLINK_ReadReg(R0)
T1BD0 003:594.692 - 0.003ms returns 0x00000000
T1BD0 003:594.946 JLINK_WriteMem(0x200001D4, 0x400 Bytes, ...)
T1BD0 003:594.950   Data:  22 68 9A 42 06 D0 41 F4 80 01 82 68 22 F0 E0 72 ...
T1BD0 003:594.959   CPU_WriteMem(1024 bytes @ 0x200001D4)
T1BD0 003:601.409 - 6.462ms returns 0x400
T1BD0 003:601.421 JLINK_HasError()
T1BD0 003:601.426 JLINK_WriteReg(R0, 0x08001C00)
T1BD0 003:601.433 - 0.006ms returns 0
T1BD0 003:601.437 JLINK_WriteReg(R1, 0x00000400)
T1BD0 003:601.440 - 0.003ms returns 0
T1BD0 003:601.444 JLINK_WriteReg(R2, 0x200001D4)
T1BD0 003:601.447 - 0.003ms returns 0
T1BD0 003:601.450 JLINK_WriteReg(R3, 0x00000000)
T1BD0 003:601.453 - 0.003ms returns 0
T1BD0 003:601.457 JLINK_WriteReg(R4, 0x00000000)
T1BD0 003:601.460 - 0.002ms returns 0
T1BD0 003:601.463 JLINK_WriteReg(R5, 0x00000000)
T1BD0 003:601.466 - 0.003ms returns 0
T1BD0 003:601.470 JLINK_WriteReg(R6, 0x00000000)
T1BD0 003:601.473 - 0.003ms returns 0
T1BD0 003:601.477 JLINK_WriteReg(R7, 0x00000000)
T1BD0 003:601.480 - 0.003ms returns 0
T1BD0 003:601.483 JLINK_WriteReg(R8, 0x00000000)
T1BD0 003:601.486 - 0.003ms returns 0
T1BD0 003:601.490 JLINK_WriteReg(R9, 0x200001C0)
T1BD0 003:601.493 - 0.003ms returns 0
T1BD0 003:601.496 JLINK_WriteReg(R10, 0x00000000)
T1BD0 003:601.499 - 0.002ms returns 0
T1BD0 003:601.503 JLINK_WriteReg(R11, 0x00000000)
T1BD0 003:601.506 - 0.003ms returns 0
T1BD0 003:601.509 JLINK_WriteReg(R12, 0x00000000)
T1BD0 003:601.512 - 0.002ms returns 0
T1BD0 003:601.516 JLINK_WriteReg(R13 (SP), 0x20001000)
T1BD0 003:601.519 - 0.003ms returns 0
T1BD0 003:601.523 JLINK_WriteReg(R14, 0x20000001)
T1BD0 003:601.526 - 0.003ms returns 0
T1BD0 003:601.530 JLINK_WriteReg(R15 (PC), 0x2000012E)
T1BD0 003:601.533 - 0.003ms returns 0
T1BD0 003:601.536 JLINK_WriteReg(XPSR, 0x01000000)
T1BD0 003:601.539 - 0.003ms returns 0
T1BD0 003:601.543 JLINK_WriteReg(MSP, 0x20001000)
T1BD0 003:601.546 - 0.003ms returns 0
T1BD0 003:601.550 JLINK_WriteReg(PSP, 0x20001000)
T1BD0 003:601.553 - 0.002ms returns 0
T1BD0 003:601.556 JLINK_WriteReg(CFBP, 0x00000000)
T1BD0 003:601.559 - 0.003ms returns 0
T1BD0 003:601.563 JLINK_SetBPEx(Addr = 0x20000000, Type = 0xFFFFFFF2)
T1BD0 003:601.567 - 0.004ms returns 0x0000000C
T1BD0 003:601.571 JLINK_Go()
T1BD0 003:601.579   CPU_ReadMem(4 bytes @ 0xE0001000)
T1BD0 003:605.400 - 3.829ms
T1BD0 003:605.406 JLINK_IsHalted()
T1BD0 003:605.852 - 0.446ms returns FALSE
T1BD0 003:605.857 JLINK_HasError()
T1BD0 003:607.867 JLINK_IsHalted()
T1BD0 003:608.647 - 0.780ms returns FALSE
T1BD0 003:608.652 JLINK_HasError()
T1BD0 003:610.867 JLINK_IsHalted()
T1BD0 003:611.403 - 0.535ms returns FALSE
T1BD0 003:611.408 JLINK_HasError()
T1BD0 003:612.866 JLINK_IsHalted()
T1BD0 003:613.402 - 0.536ms returns FALSE
T1BD0 003:613.406 JLINK_HasError()
T1BD0 003:614.869 JLINK_IsHalted()
T1BD0 003:615.417 - 0.547ms returns FALSE
T1BD0 003:615.421 JLINK_HasError()
T1BD0 003:616.870 JLINK_IsHalted()
T1BD0 003:620.472   CPU_ReadMem(2 bytes @ 0x20000000)
T1BD0 003:620.914 - 4.043ms returns TRUE
T1BD0 003:620.920 JLINK_ReadReg(R15 (PC))
T1BD0 003:620.925 - 0.005ms returns 0x20000000
T1BD0 003:620.948 JLINK_ClrBPEx(BPHandle = 0x0000000C)
T1BD0 003:620.952 - 0.003ms returns 0x00
T1BD0 003:620.956 JLINK_ReadReg(R0)
T1BD0 003:620.959 - 0.003ms returns 0x00000000
T1BD0 003:621.233 JLINK_WriteMem(0x200001D4, 0x400 Bytes, ...)
T1BD0 003:621.238   Data:  B0 FA 80 F0 81 42 04 D1 00 22 11 46 20 68 03 F0 ...
T1BD0 003:621.248   CPU_WriteMem(1024 bytes @ 0x200001D4)
T1BD0 003:627.405 - 6.171ms returns 0x400
T1BD0 003:627.415 JLINK_HasError()
T1BD0 003:627.422 JLINK_WriteReg(R0, 0x08002000)
T1BD0 003:627.427 - 0.005ms returns 0
T1BD0 003:627.431 JLINK_WriteReg(R1, 0x00000400)
T1BD0 003:627.434 - 0.003ms returns 0
T1BD0 003:627.438 JLINK_WriteReg(R2, 0x200001D4)
T1BD0 003:627.441 - 0.003ms returns 0
T1BD0 003:627.445 JLINK_WriteReg(R3, 0x00000000)
T1BD0 003:627.448 - 0.002ms returns 0
T1BD0 003:627.451 JLINK_WriteReg(R4, 0x00000000)
T1BD0 003:627.454 - 0.003ms returns 0
T1BD0 003:627.458 JLINK_WriteReg(R5, 0x00000000)
T1BD0 003:627.461 - 0.002ms returns 0
T1BD0 003:627.464 JLINK_WriteReg(R6, 0x00000000)
T1BD0 003:627.467 - 0.002ms returns 0
T1BD0 003:627.471 JLINK_WriteReg(R7, 0x00000000)
T1BD0 003:627.474 - 0.003ms returns 0
T1BD0 003:627.477 JLINK_WriteReg(R8, 0x00000000)
T1BD0 003:627.480 - 0.003ms returns 0
T1BD0 003:627.484 JLINK_WriteReg(R9, 0x200001C0)
T1BD0 003:627.487 - 0.002ms returns 0
T1BD0 003:627.490 JLINK_WriteReg(R10, 0x00000000)
T1BD0 003:627.493 - 0.003ms returns 0
T1BD0 003:627.497 JLINK_WriteReg(R11, 0x00000000)
T1BD0 003:627.500 - 0.003ms returns 0
T1BD0 003:627.503 JLINK_WriteReg(R12, 0x00000000)
T1BD0 003:627.506 - 0.003ms returns 0
T1BD0 003:627.510 JLINK_WriteReg(R13 (SP), 0x20001000)
T1BD0 003:627.513 - 0.003ms returns 0
T1BD0 003:627.517 JLINK_WriteReg(R14, 0x20000001)
T1BD0 003:627.520 - 0.003ms returns 0
T1BD0 003:627.524 JLINK_WriteReg(R15 (PC), 0x2000012E)
T1BD0 003:627.527 - 0.003ms returns 0
T1BD0 003:627.530 JLINK_WriteReg(XPSR, 0x01000000)
T1BD0 003:627.533 - 0.003ms returns 0
T1BD0 003:627.537 JLINK_WriteReg(MSP, 0x20001000)
T1BD0 003:627.540 - 0.002ms returns 0
T1BD0 003:627.543 JLINK_WriteReg(PSP, 0x20001000)
T1BD0 003:627.547 - 0.003ms returns 0
T1BD0 003:627.550 JLINK_WriteReg(CFBP, 0x00000000)
T1BD0 003:627.553 - 0.003ms returns 0
T1BD0 003:627.557 JLINK_SetBPEx(Addr = 0x20000000, Type = 0xFFFFFFF2)
